
T294C 000:294 SEGGER J-Link V6.10i Log File (0000ms, 0025ms total)
T294C 000:294 DLL Compiled: Oct 25 2016 19:31:51 (0000ms, 0025ms total)
T294C 000:294 Logging started @ 2025-08-16 21:08 (0000ms, 0025ms total)
T294C 000:295 JLINK_SetWarnOutHandler(...) (0000ms, 0026ms total)
T294C 000:295 JLINK_OpenEx(...)
Firmware: J-Link V9 compiled May  7 2021 16:26:12
Hardware: V9.60
S/N: 69608000
Feature(s): GDB, RDI, FlashBP, FlashDL, JFlashWEBSRV Webserver running on local port 19080 (0017ms, 0043ms total)
T294C 000:295   returns O.K. (0017ms, 0043ms total)
T294C 000:312 JLINK_SetErrorOutHandler(...) (0000ms, 0043ms total)
T294C 000:312 JLINK_ExecCommand("ProjectFile = "C:\Users\Administrator\Desktop\code\Embedded\code\led_freertos\MDK-ARM\JLinkSettings.ini"", ...).   returns 0x00 (0091ms, 0134ms total)
T294C 000:403 JLINK_ExecCommand("Device = STM32F407ZGTx", ...). Device "STM32F407ZG" selected.  returns 0x00 (0000ms, 0134ms total)
T294C 000:403 JLINK_ExecCommand("DisableConnectionTimeout", ...).   returns 0x01 (0000ms, 0134ms total)
T294C 000:403 JLINK_GetHardwareVersion()  returns 0x17700 (0000ms, 0134ms total)
T294C 000:403 JLINK_GetDLLVersion()  returns 61009 (0000ms, 0134ms total)
T294C 000:403 JLINK_GetFirmwareString(...) (0000ms, 0134ms total)
T294C 000:403 JLINK_GetDLLVersion()  returns 61009 (0000ms, 0134ms total)
T294C 000:403 JLINK_GetCompileDateTime() (0000ms, 0134ms total)
T294C 000:403 JLINK_GetFirmwareString(...) (0000ms, 0134ms total)
T294C 000:403 JLINK_GetHardwareVersion()  returns 0x17700 (0000ms, 0134ms total)
T294C 000:403 JLINK_TIF_Select(JLINKARM_TIF_SWD)  returns 0x00 (0001ms, 0135ms total)
T294C 000:404 JLINK_SetSpeed(5000) (0000ms, 0135ms total)
T294C 000:404 JLINK_GetId() >0x108 TIF>Found SWD-DP with ID 0x2BA01477 >0x0D TIF> >0x28 TIF> >0x0D TIF> >0x28 TIF> >0x0D TIF> >0x28 TIF> >0x0D TIF> >0x28 TIF> >0x0D TIF> >0x21 TIF> >0x0D TIF> >0x28 TIF> >0x0D TIF> >0x28 TIF> >0x0D TIF> >0x28 TIF> >0x0D TIF> >0x21 TIF> >0x0D TIF> >0x21 TIF> >0x0D TIF> >0x28 TIF> >0x0D TIF> >0x21 TIF> >0x0D TIF> >0x21 TIF> >0x0D TIF> >0x28 TIF> >0x0D TIF> >0x21 TIF> >0x0D TIF> >0x21 TIF> >0x0D TIF> >0x28 TIF> >0x0D TIF> >0x21 TIF> >0x0D TIF> >0x21 TIF> >0x0D TIF>
 >0x28 TIF> >0x0D TIF> >0x21 TIF> >0x0D TIF> >0x21 TIF> >0x0D TIF> >0x28 TIF> >0x0D TIF> >0x21 TIF> >0x0D TIF> >0x21 TIF> >0x108 TIF>Found SWD-DP with ID 0x2BA01477 >0x0D TIF> >0x28 TIF> >0x0D TIF> >0x28 TIF> >0x0D TIF> >0x28 TIF> >0x0D TIF> >0x28 TIF> >0x0D TIF> >0x21 TIF> >0x0D TIF> >0x28 TIF> >0x0D TIF> >0x28 TIF> >0x0D TIF> >0x21 TIF> >0x0D TIF> >0x21 TIF> >0x0D TIF> >0x21 TIF>AP-IDR: 0x24770011, Type: AHB-AP >0x0D TIF> >0x28 TIF> >0x0D TIF> >0x28 TIF> >0x0D TIF> >0x28 TIF> >0x0D TIF> >0x21 TIF>
 >0x0D TIF> >0x21 TIF> >0x0D TIF> >0x28 TIF> >0x0D TIF> >0x21 TIF> >0x0D TIF> >0x21 TIF>Found Cortex-M4 r0p1, Little endian. -- CPU_ReadMem(4 bytes @ 0xE000EDF0) -- CPU_WriteMem(4 bytes @ 0xE000EDF0) -- CPU_ReadMem(4 bytes @ 0xE0002000)FPUnit: 6 code (BP) slots and 2 literal slots -- CPU_ReadMem(4 bytes @ 0xE000EDFC) -- CPU_WriteMem(4 bytes @ 0xE000EDFC) -- CPU_ReadMem(4 bytes @ 0xE0001000) -- CPU_WriteMem(4 bytes @ 0xE0001000) -- CPU_ReadMem(4 bytes @ 0xE000ED88) -- CPU_WriteMem(4 bytes @ 0xE000ED88)
 -- CPU_ReadMem(4 bytes @ 0xE000ED88) -- CPU_WriteMem(4 bytes @ 0xE000ED88)CoreSight components:ROMTbl 0 @ E00FF000 -- CPU_ReadMem(16 bytes @ 0xE00FF000) -- CPU_ReadMem(16 bytes @ 0xE000EFF0) -- CPU_ReadMem(16 bytes @ 0xE000EFE0)ROMTbl 0 [0]: FFF0F000, CID: B105E00D, PID: 000BB00C SCS -- CPU_ReadMem(16 bytes @ 0xE0001FF0) -- CPU_ReadMem(16 bytes @ 0xE0001FE0)ROMTbl 0 [1]: FFF02000, CID: B105E00D, PID: 003BB002 DWT -- CPU_ReadMem(16 bytes @ 0xE0002FF0) -- CPU_ReadMem(16 bytes @ 0xE0002FE0)
ROMTbl 0 [2]: FFF03000, CID: B105E00D, PID: 002BB003 FPB -- CPU_ReadMem(16 bytes @ 0xE0000FF0) -- CPU_ReadMem(16 bytes @ 0xE0000FE0)ROMTbl 0 [3]: FFF01000, CID: B105E00D, PID: 003BB001 ITM -- CPU_ReadMem(16 bytes @ 0xE00FF010) -- CPU_ReadMem(16 bytes @ 0xE0040FF0) -- CPU_ReadMem(16 bytes @ 0xE0040FE0)ROMTbl 0 [4]: FFF41000, CID: B105900D, PID: 000BB9A1 TPIU -- CPU_ReadMem(16 bytes @ 0xE0041FF0) -- CPU_ReadMem(16 bytes @ 0xE0041FE0)ROMTbl 0 [5]: FFF42000, CID: B105900D, PID: 000BB925 ETM >0x0D TIF>
 >0x21 TIF>  returns 0x2BA01477 (0021ms, 0156ms total)
T294C 000:425 JLINK_GetDLLVersion()  returns 61009 (0000ms, 0156ms total)
T294C 000:425 JLINK_CORE_GetFound()  returns 0xE0000FF (0000ms, 0156ms total)
T294C 000:425 JLINK_GetDebugInfo(0x100) -- Value=0xE00FF000  returns 0x00 (0000ms, 0156ms total)
T294C 000:425 JLINK_GetDebugInfo(0x100) -- Value=0xE00FF000  returns 0x00 (0001ms, 0157ms total)
T294C 000:426 JLINK_GetDebugInfo(0x101) -- Value=0xE0041000  returns 0x00 (0000ms, 0157ms total)
T294C 000:426 JLINK_GetDebugInfo(0x102) -- Value=0x00000000  returns 0x00 (0000ms, 0157ms total)
T294C 000:426 JLINK_GetDebugInfo(0x103) -- Value=0xE0040000  returns 0x00 (0000ms, 0157ms total)
T294C 000:426 JLINK_GetDebugInfo(0x104) -- Value=0xE0000000  returns 0x00 (0000ms, 0157ms total)
T294C 000:426 JLINK_GetDebugInfo(0x105) -- Value=0xE0001000  returns 0x00 (0000ms, 0157ms total)
T294C 000:426 JLINK_GetDebugInfo(0x106) -- Value=0xE0002000  returns 0x00 (0000ms, 0157ms total)
T294C 000:426 JLINK_GetDebugInfo(0x107) -- Value=0xE000E000  returns 0x00 (0000ms, 0157ms total)
T294C 000:426 JLINK_GetDebugInfo(0x10C) -- Value=0xE000EDF0  returns 0x00 (0000ms, 0157ms total)
T294C 000:426 JLINK_ReadMemU32(0xE000EF40, 0x0001 Items, ...) -- CPU is running -- CPU_ReadMem(4 bytes @ 0xE000EF40) - Data: 21 00 11 10  returns 0x01 (0000ms, 0157ms total)
T294C 000:426 JLINK_ReadMemU32(0xE000EF44, 0x0001 Items, ...) -- CPU is running -- CPU_ReadMem(4 bytes @ 0xE000EF44) - Data: 11 00 00 11  returns 0x01 (0000ms, 0157ms total)
T294C 000:426 JLINK_ReadMemU32(0xE000ED00, 0x0001 Items, ...) -- CPU is running -- CPU_ReadMem(4 bytes @ 0xE000ED00) - Data: 41 C2 0F 41  returns 0x01 (0000ms, 0157ms total)
T294C 000:426 JLINK_SetResetType(JLINKARM_RESET_TYPE_NORMAL)  returns JLINKARM_RESET_TYPE_NORMAL (0000ms, 0157ms total)
T294C 000:426 JLINK_Reset() -- CPU is running -- CPU_WriteMem(4 bytes @ 0xE000EDF0) -- CPU is running -- CPU_WriteMem(4 bytes @ 0xE000EDFC) >0x35 TIF> -- CPU is running -- CPU_WriteMem(4 bytes @ 0xE000ED0C) -- CPU is running -- CPU_ReadMem(4 bytes @ 0xE000EDF0) -- CPU is running -- CPU_ReadMem(4 bytes @ 0xE000EDF0) -- CPU is running -- CPU_WriteMem(4 bytes @ 0xE000EDF0) -- CPU is running -- CPU_WriteMem(4 bytes @ 0xE000EDFC) -- CPU is running -- CPU_ReadMem(4 bytes @ 0xE000EDF0)
 -- CPU_WriteMem(4 bytes @ 0xE0002000) -- CPU_ReadMem(4 bytes @ 0xE000EDFC) -- CPU_ReadMem(4 bytes @ 0xE0001000) (0015ms, 0172ms total)
T294C 000:441 JLINK_ReadReg(R15 (PC))  returns 0x080002E8 (0000ms, 0172ms total)
T294C 000:441 JLINK_ReadReg(XPSR)  returns 0x01000000 (0000ms, 0172ms total)
T294C 000:441 JLINK_Halt()  returns 0x00 (0000ms, 0172ms total)
T294C 000:441 JLINK_IsHalted()  returns TRUE (0000ms, 0172ms total)
T294C 000:441 JLINK_ReadMemU32(0xE000EDF0, 0x0001 Items, ...) -- CPU_ReadMem(4 bytes @ 0xE000EDF0) - Data: 03 00 03 00  returns 0x01 (0000ms, 0172ms total)
T294C 000:441 JLINK_WriteU32(0xE000EDF0, 0xA05F0003) -- CPU_WriteMem(4 bytes @ 0xE000EDF0)  returns 0x00 (0000ms, 0172ms total)
T294C 000:441 JLINK_WriteU32(0xE000EDFC, 0x01000000) -- CPU_WriteMem(4 bytes @ 0xE000EDFC)  returns 0x00 (0001ms, 0173ms total)
T294C 000:442 JLINK_GetHWStatus(...)  returns 0x00 (0000ms, 0173ms total)
T294C 000:442 JLINK_GetNumBPUnits(Type = 0xFFFFFF00)  returns 0x06 (0000ms, 0173ms total)
T294C 000:442 JLINK_GetNumBPUnits(Type = 0xF0)  returns 0x2000 (0000ms, 0173ms total)
T294C 000:442 JLINK_GetNumWPUnits()  returns 0x04 (0000ms, 0173ms total)
T294C 000:442 JLINK_GetSpeed()  returns 0xFA0 (0000ms, 0173ms total)
T294C 000:442 JLINK_ReadMemU32(0xE000E004, 0x0001 Items, ...) -- CPU_ReadMem(4 bytes @ 0xE000E004) - Data: 02 00 00 00  returns 0x01 (0000ms, 0173ms total)
T294C 000:442 JLINK_ReadMemU32(0xE000E004, 0x0001 Items, ...) -- CPU_ReadMem(4 bytes @ 0xE000E004) - Data: 02 00 00 00  returns 0x01 (0000ms, 0173ms total)
T294C 000:442 JLINK_WriteMem(0xE0001000, 0x001C Bytes, ...) - Data: 01 00 00 00 00 00 00 00 00 00 00 00 00 00 00 00 ... -- CPU_WriteMem(28 bytes @ 0xE0001000)  returns 0x1C (0001ms, 0174ms total)
T294C 000:443 JLINK_ReadMem (0xE0001000, 0x001C Bytes, ...) -- CPU_ReadMem(28 bytes @ 0xE0001000) - Data: 01 00 00 40 00 00 00 00 00 00 00 00 00 00 00 00 ...  returns 0x00 (0000ms, 0174ms total)
T294C 000:443 JLINK_ReadReg(R15 (PC))  returns 0x080002E8 (0000ms, 0174ms total)
T294C 000:443 JLINK_ReadReg(XPSR)  returns 0x01000000 (0000ms, 0174ms total)
T294C 000:555 JLINK_SetResetType(JLINKARM_RESET_TYPE_NORMAL)  returns JLINKARM_RESET_TYPE_NORMAL (0000ms, 0174ms total)
T294C 000:555 JLINK_Reset() -- CPU_WriteMem(4 bytes @ 0xE000EDF0) -- CPU_WriteMem(4 bytes @ 0xE000EDFC) >0x35 TIF> -- CPU_WriteMem(4 bytes @ 0xE000ED0C) -- CPU_ReadMem(4 bytes @ 0xE000EDF0) -- CPU_ReadMem(4 bytes @ 0xE000EDF0) -- CPU_WriteMem(4 bytes @ 0xE000EDF0) -- CPU_WriteMem(4 bytes @ 0xE000EDFC) -- CPU is running -- CPU_ReadMem(4 bytes @ 0xE000EDF0) -- CPU_WriteMem(4 bytes @ 0xE0002000) -- CPU_ReadMem(4 bytes @ 0xE000EDFC) -- CPU_ReadMem(4 bytes @ 0xE0001000) (0016ms, 0190ms total)
T294C 000:571 JLINK_ReadReg(R15 (PC))  returns 0x080002E8 (0000ms, 0190ms total)
T294C 000:571 JLINK_ReadReg(XPSR)  returns 0x01000000 (0000ms, 0190ms total)
T294C 000:572 JLINK_ReadMem (0x080001E8, 0x003C Bytes, ...) -- CPU_ReadMem(128 bytes @ 0x080001C0) -- Updating C cache (128 bytes @ 0x080001C0) -- Read from C cache (60 bytes @ 0x080001E8) - Data: 10 3A 28 BF 78 C1 FB D8 52 07 28 BF 30 C1 48 BF ...  returns 0x00 (0000ms, 0190ms total)
T294C 000:572 JLINK_ReadMem (0x08000224, 0x003C Bytes, ...) -- CPU_ReadMem(64 bytes @ 0x08000240) -- Updating C cache (64 bytes @ 0x08000240) -- Read from C cache (60 bytes @ 0x08000224) - Data: F5 F9 00 00 2C 4B 19 68 08 68 B0 E8 F0 4F 80 F3 ...  returns 0x00 (0001ms, 0191ms total)
T294C 000:573 JLINK_ReadMem (0x08000260, 0x003C Bytes, ...) -- CPU_ReadMem(64 bytes @ 0x08000280) -- Updating C cache (64 bytes @ 0x08000280) -- Read from C cache (60 bytes @ 0x08000260) - Data: 4F 8F BF F3 6F 8F 00 DF 00 BF 00 BF 08 ED 00 E0 ...  returns 0x00 (0000ms, 0191ms total)
T294C 000:573 JLINK_ReadMem (0x0800029C, 0x003C Bytes, ...) -- CPU_ReadMem(64 bytes @ 0x080002C0) -- Updating C cache (64 bytes @ 0x080002C0) -- Read from C cache (60 bytes @ 0x0800029C) - Data: F0 4F 10 60 09 B4 4F F0 50 00 80 F3 11 88 BF F3 ...  returns 0x00 (0001ms, 0192ms total)
T294C 000:574 JLINK_ReadMem (0x080002D8, 0x003C Bytes, ...) -- CPU_ReadMem(64 bytes @ 0x08000300) -- Updating C cache (64 bytes @ 0x08000300) -- Read from C cache (60 bytes @ 0x080002D8) - Data: 6F 8F 70 47 18 00 00 20 EF F3 05 80 70 47 00 00 ...  returns 0x00 (0000ms, 0192ms total)
T294C 000:767 JLINK_ReadMem (0x40021400, 0x0014 Bytes, ...) -- CPU_ReadMem(20 bytes @ 0x40021400) - Data: 00 00 00 00 00 00 00 00 00 00 00 00 00 00 00 00 ...  returns 0x00 (0001ms, 0193ms total)
T294C 000:768 JLINK_ReadMem (0x40021414, 0x0004 Bytes, ...) -- CPU_ReadMem(4 bytes @ 0x40021414) - Data: 00 00 00 00  returns 0x00 (0000ms, 0193ms total)
T294C 000:768 JLINK_ReadMem (0x4002141C, 0x0008 Bytes, ...) -- CPU_ReadMem(8 bytes @ 0x4002141C) - Data: 00 00 00 00 00 00 00 00  returns 0x00 (0000ms, 0193ms total)
T294C 000:768 JLINK_ReadMem (0x40021424, 0x0004 Bytes, ...) -- CPU_ReadMem(4 bytes @ 0x40021424) - Data: 00 00 00 00  returns 0x00 (0001ms, 0194ms total)
T33E4 003:962 JLINK_SetBPEx(Addr = 0x080013EE, Type = 0xFFFFFFF2)  returns 0x00000001 (0000ms, 0194ms total)
T33E4 003:962 JLINK_Go() -- CPU_WriteMem(4 bytes @ 0xE0002000) -- CPU_ReadMem(4 bytes @ 0xE0001000) -- CPU_WriteMem(4 bytes @ 0xE0002008) -- CPU_WriteMem(4 bytes @ 0xE000200C) -- CPU_WriteMem(4 bytes @ 0xE0002010) -- CPU_WriteMem(4 bytes @ 0xE0002014) -- CPU_WriteMem(4 bytes @ 0xE0002018) -- CPU_WriteMem(4 bytes @ 0xE000201C) -- CPU_WriteMem(4 bytes @ 0xE0001004) (0003ms, 0197ms total)
T33E4 004:065 JLINK_IsHalted()  returns TRUE (0001ms, 0198ms total)
T33E4 004:067 JLINK_Halt()  returns 0x00 (0000ms, 0197ms total)
T33E4 004:067 JLINK_IsHalted()  returns TRUE (0000ms, 0197ms total)
T33E4 004:067 JLINK_IsHalted()  returns TRUE (0000ms, 0197ms total)
T33E4 004:067 JLINK_IsHalted()  returns TRUE (0000ms, 0197ms total)
T33E4 004:067 JLINK_ReadReg(R15 (PC))  returns 0x080013EE (0000ms, 0197ms total)
T33E4 004:067 JLINK_ReadReg(XPSR)  returns 0x21000000 (0000ms, 0197ms total)
T33E4 004:067 JLINK_ClrBPEx(BPHandle = 0x00000001)  returns 0x00 (0000ms, 0197ms total)
T33E4 004:067 JLINK_ReadMemU32(0xE000ED30, 0x0001 Items, ...) -- CPU_ReadMem(4 bytes @ 0xE000ED30) - Data: 02 00 00 00  returns 0x01 (0000ms, 0197ms total)
T33E4 004:067 JLINK_ReadMemU32(0xE0001028, 0x0001 Items, ...) -- CPU_ReadMem(4 bytes @ 0xE0001028) - Data: 00 00 00 00  returns 0x01 (0000ms, 0197ms total)
T33E4 004:067 JLINK_ReadMemU32(0xE0001038, 0x0001 Items, ...) -- CPU_ReadMem(4 bytes @ 0xE0001038) - Data: 00 02 00 00  returns 0x01 (0001ms, 0198ms total)
T33E4 004:068 JLINK_ReadMemU32(0xE0001048, 0x0001 Items, ...) -- CPU_ReadMem(4 bytes @ 0xE0001048) - Data: 00 00 00 00  returns 0x01 (0000ms, 0198ms total)
T33E4 004:068 JLINK_ReadMemU32(0xE0001058, 0x0001 Items, ...) -- CPU_ReadMem(4 bytes @ 0xE0001058) - Data: 00 00 00 00  returns 0x01 (0000ms, 0198ms total)
T33E4 004:068 JLINK_ReadReg(R0)  returns 0x20004A18 (0000ms, 0198ms total)
T33E4 004:068 JLINK_ReadReg(R1)  returns 0x20004C18 (0000ms, 0198ms total)
T33E4 004:068 JLINK_ReadReg(R2)  returns 0x20004C18 (0000ms, 0198ms total)
T33E4 004:068 JLINK_ReadReg(R3)  returns 0x20004C18 (0000ms, 0198ms total)
T33E4 004:068 JLINK_ReadReg(R4)  returns 0x00000000 (0000ms, 0198ms total)
T33E4 004:068 JLINK_ReadReg(R5)  returns 0x200049B4 (0000ms, 0198ms total)
T33E4 004:068 JLINK_ReadReg(R6)  returns 0x00000000 (0000ms, 0198ms total)
T33E4 004:068 JLINK_ReadReg(R7)  returns 0x00000000 (0000ms, 0198ms total)
T33E4 004:068 JLINK_ReadReg(R8)  returns 0x00000000 (0000ms, 0198ms total)
T33E4 004:068 JLINK_ReadReg(R9)  returns 0x00000000 (0000ms, 0198ms total)
T33E4 004:068 JLINK_ReadReg(R10)  returns 0x08002C78 (0000ms, 0198ms total)
T33E4 004:068 JLINK_ReadReg(R11)  returns 0x00000000 (0000ms, 0198ms total)
T33E4 004:068 JLINK_ReadReg(R12)  returns 0x200049F4 (0000ms, 0198ms total)
T33E4 004:068 JLINK_ReadReg(R13 (SP))  returns 0x20005018 (0000ms, 0198ms total)
T33E4 004:068 JLINK_ReadReg(R14)  returns 0x08000217 (0000ms, 0198ms total)
T33E4 004:068 JLINK_ReadReg(R15 (PC))  returns 0x080013EE (0000ms, 0198ms total)
T33E4 004:068 JLINK_ReadReg(XPSR)  returns 0x21000000 (0000ms, 0198ms total)
T33E4 004:068 JLINK_ReadReg(MSP)  returns 0x20005018 (0000ms, 0198ms total)
T33E4 004:068 JLINK_ReadReg(PSP)  returns 0x00000000 (0000ms, 0198ms total)
T33E4 004:068 JLINK_ReadReg(CFBP)  returns 0x04000000 (0000ms, 0198ms total)
T33E4 004:068 JLINK_ReadReg(FPSCR)  returns 0x03000000 (0004ms, 0202ms total)
T33E4 004:072 JLINK_ReadReg(FPS0)  returns 0x00000000 (0000ms, 0202ms total)
T33E4 004:072 JLINK_ReadReg(FPS1)  returns 0x00000000 (0000ms, 0202ms total)
T33E4 004:072 JLINK_ReadReg(FPS2)  returns 0x00000000 (0000ms, 0202ms total)
T33E4 004:072 JLINK_ReadReg(FPS3)  returns 0x00000000 (0000ms, 0202ms total)
T33E4 004:072 JLINK_ReadReg(FPS4)  returns 0x00000000 (0000ms, 0202ms total)
T33E4 004:072 JLINK_ReadReg(FPS5)  returns 0x00000000 (0000ms, 0202ms total)
T33E4 004:072 JLINK_ReadReg(FPS6)  returns 0x00000000 (0000ms, 0202ms total)
T33E4 004:072 JLINK_ReadReg(FPS7)  returns 0x00000000 (0000ms, 0202ms total)
T33E4 004:072 JLINK_ReadReg(FPS8)  returns 0x00000000 (0000ms, 0202ms total)
T33E4 004:072 JLINK_ReadReg(FPS9)  returns 0x00000000 (0000ms, 0202ms total)
T33E4 004:072 JLINK_ReadReg(FPS10)  returns 0x00000000 (0000ms, 0202ms total)
T33E4 004:072 JLINK_ReadReg(FPS11)  returns 0x00000000 (0000ms, 0202ms total)
T33E4 004:072 JLINK_ReadReg(FPS12)  returns 0x00000000 (0000ms, 0202ms total)
T33E4 004:072 JLINK_ReadReg(FPS13)  returns 0x00000000 (0000ms, 0202ms total)
T33E4 004:072 JLINK_ReadReg(FPS14)  returns 0x00000000 (0000ms, 0202ms total)
T33E4 004:072 JLINK_ReadReg(FPS15)  returns 0x00000000 (0000ms, 0202ms total)
T33E4 004:072 JLINK_ReadReg(FPS16)  returns 0x00000000 (0000ms, 0202ms total)
T33E4 004:072 JLINK_ReadReg(FPS17)  returns 0x00000000 (0000ms, 0202ms total)
T33E4 004:072 JLINK_ReadReg(FPS18)  returns 0x00000000 (0000ms, 0202ms total)
T33E4 004:072 JLINK_ReadReg(FPS19)  returns 0x00000000 (0000ms, 0202ms total)
T33E4 004:072 JLINK_ReadReg(FPS20)  returns 0x00000000 (0000ms, 0202ms total)
T33E4 004:072 JLINK_ReadReg(FPS21)  returns 0x00000000 (0000ms, 0202ms total)
T33E4 004:072 JLINK_ReadReg(FPS22)  returns 0x00000000 (0000ms, 0202ms total)
T33E4 004:072 JLINK_ReadReg(FPS23)  returns 0x00000000 (0000ms, 0202ms total)
T33E4 004:072 JLINK_ReadReg(FPS24)  returns 0x00000000 (0000ms, 0202ms total)
T33E4 004:072 JLINK_ReadReg(FPS25)  returns 0x00000000 (0000ms, 0202ms total)
T33E4 004:072 JLINK_ReadReg(FPS26)  returns 0x00000000 (0000ms, 0202ms total)
T33E4 004:072 JLINK_ReadReg(FPS27)  returns 0x00000000 (0000ms, 0202ms total)
T33E4 004:072 JLINK_ReadReg(FPS28)  returns 0x00000000 (0000ms, 0202ms total)
T33E4 004:072 JLINK_ReadReg(FPS29)  returns 0x00000000 (0000ms, 0202ms total)
T33E4 004:072 JLINK_ReadReg(FPS30)  returns 0x00000000 (0000ms, 0202ms total)
T33E4 004:072 JLINK_ReadReg(FPS31)  returns 0x00000000 (0000ms, 0202ms total)
T294C 004:076 JLINK_ReadMem (0x40021400, 0x0014 Bytes, ...) -- CPU_ReadMem(20 bytes @ 0x40021400) - Data: 00 00 00 00 00 00 00 00 00 00 00 00 00 00 00 00 ...  returns 0x00 (0000ms, 0202ms total)
T294C 004:076 JLINK_ReadMem (0x40021414, 0x0004 Bytes, ...) -- CPU_ReadMem(4 bytes @ 0x40021414) - Data: 00 00 00 00  returns 0x00 (0000ms, 0202ms total)
T294C 004:076 JLINK_ReadMem (0x4002141C, 0x0008 Bytes, ...) -- CPU_ReadMem(8 bytes @ 0x4002141C) - Data: 00 00 00 00 00 00 00 00  returns 0x00 (0000ms, 0202ms total)
T294C 004:076 JLINK_ReadMem (0x40021424, 0x0004 Bytes, ...) -- CPU_ReadMem(4 bytes @ 0x40021424) - Data: 00 00 00 00  returns 0x00 (0001ms, 0203ms total)
T294C 004:077 JLINK_ReadMem (0x080013DE, 0x0002 Bytes, ...) -- CPU_ReadMem(64 bytes @ 0x080013C0) -- Updating C cache (64 bytes @ 0x080013C0) -- Read from C cache (2 bytes @ 0x080013DE) - Data: 70 47  returns 0x00 (0001ms, 0204ms total)
T294C 004:078 JLINK_ReadMem (0x080013E0, 0x0020 Bytes, ...) -- Read from C cache (32 bytes @ 0x080013E0) - Data: 00 F0 0F 00 00 F1 E0 20 80 F8 14 1D 70 47 FF F7 ...  returns 0x00 (0000ms, 0204ms total)
T294C 004:078 JLINK_ReadMem (0x08001400, 0x001C Bytes, ...) -- CPU_ReadMem(64 bytes @ 0x08001400) -- Updating C cache (64 bytes @ 0x08001400) -- Read from C cache (28 bytes @ 0x08001400) - Data: A9 FE 00 F0 21 F8 FE E7 10 B5 EF F3 05 81 11 B1 ...  returns 0x00 (0001ms, 0205ms total)
T33E4 004:785 JLINK_Go() -- CPU_ReadMem(4 bytes @ 0xE0001000) -- CPU_WriteMem(4 bytes @ 0xE0002008) (0001ms, 0206ms total)
T33E4 004:887 JLINK_IsHalted()  returns FALSE (0000ms, 0206ms total)
T33E4 004:988 JLINK_IsHalted()  returns FALSE (0000ms, 0206ms total)
T33E4 005:089 JLINK_IsHalted()  returns FALSE (0000ms, 0206ms total)
T33E4 005:190 JLINK_IsHalted()  returns FALSE (0000ms, 0206ms total)
T33E4 005:290 JLINK_IsHalted()  returns FALSE (0000ms, 0206ms total)
T33E4 005:391 JLINK_ReadMemU32(0xE0001004, 0x0001 Items, ...) -- CPU is running -- CPU_ReadMem(4 bytes @ 0xE0001004) - Data: 78 4A 0B 06  returns 0x01 (0000ms, 0206ms total)
T294C 005:392 JLINK_ReadMem (0x40021400, 0x0014 Bytes, ...) -- CPU is running -- CPU_ReadMem(20 bytes @ 0x40021400) - Data: 00 00 14 00 00 00 00 00 00 00 00 00 00 00 00 00 ...  returns 0x00 (0001ms, 0207ms total)
T294C 005:393 JLINK_ReadMem (0x40021414, 0x0004 Bytes, ...) -- CPU is running -- CPU_ReadMem(4 bytes @ 0x40021414) - Data: 00 04 00 00  returns 0x00 (0000ms, 0207ms total)
T294C 005:393 JLINK_ReadMem (0x4002141C, 0x0008 Bytes, ...) -- CPU is running -- CPU_ReadMem(8 bytes @ 0x4002141C) - Data: 00 00 00 00 00 00 00 00  returns 0x00 (0000ms, 0207ms total)
T294C 005:393 JLINK_ReadMem (0x40021424, 0x0004 Bytes, ...) -- CPU is running -- CPU_ReadMem(4 bytes @ 0x40021424) - Data: 00 00 00 00  returns 0x00 (0000ms, 0207ms total)
T33E4 005:403 JLINK_IsHalted()  returns FALSE (0001ms, 0208ms total)
T33E4 005:505 JLINK_IsHalted()  returns FALSE (0001ms, 0208ms total)
T33E4 005:606 JLINK_IsHalted()  returns FALSE (0000ms, 0207ms total)
T33E4 005:707 JLINK_IsHalted()  returns FALSE (0000ms, 0207ms total)
T33E4 005:808 JLINK_IsHalted()  returns FALSE (0000ms, 0207ms total)
T33E4 005:908 JLINK_ReadMemU32(0xE0001004, 0x0001 Items, ...) -- CPU is running - Data: 78 4A 0B 06  returns 0x01 (0000ms, 0207ms total)
T294C 005:910 JLINK_ReadMem (0x40021400, 0x0014 Bytes, ...) -- CPU is running -- CPU_ReadMem(20 bytes @ 0x40021400) - Data: 00 00 14 00 00 00 00 00 00 00 00 00 00 00 00 00 ...  returns 0x00 (0000ms, 0207ms total)
T294C 005:910 JLINK_ReadMem (0x40021414, 0x0004 Bytes, ...) -- CPU is running -- CPU_ReadMem(4 bytes @ 0x40021414) - Data: 00 02 00 00  returns 0x00 (0000ms, 0207ms total)
T294C 005:910 JLINK_ReadMem (0x4002141C, 0x0008 Bytes, ...) -- CPU is running -- CPU_ReadMem(8 bytes @ 0x4002141C) - Data: 00 00 00 00 00 00 00 00  returns 0x00 (0000ms, 0207ms total)
T294C 005:910 JLINK_ReadMem (0x40021424, 0x0004 Bytes, ...) -- CPU is running -- CPU_ReadMem(4 bytes @ 0x40021424) - Data: 00 00 00 00  returns 0x00 (0001ms, 0208ms total)
T33E4 005:916 JLINK_IsHalted()  returns FALSE (0000ms, 0208ms total)
T33E4 006:018 JLINK_IsHalted()  returns FALSE (0000ms, 0208ms total)
T33E4 006:119 JLINK_IsHalted()  returns FALSE (0000ms, 0208ms total)
T33E4 006:220 JLINK_IsHalted()  returns FALSE (0000ms, 0208ms total)
T33E4 006:320 JLINK_IsHalted()  returns FALSE (0000ms, 0208ms total)
T33E4 006:421 JLINK_ReadMemU32(0xE0001004, 0x0001 Items, ...) -- CPU is running - Data: 78 4A 0B 06  returns 0x01 (0000ms, 0208ms total)
T294C 006:423 JLINK_ReadMem (0x40021400, 0x0014 Bytes, ...) -- CPU is running -- CPU_ReadMem(20 bytes @ 0x40021400) - Data: 00 00 14 00 00 00 00 00 00 00 00 00 00 00 00 00 ...  returns 0x00 (0001ms, 0209ms total)
T294C 006:424 JLINK_ReadMem (0x40021414, 0x0004 Bytes, ...) -- CPU is running -- CPU_ReadMem(4 bytes @ 0x40021414) - Data: 00 04 00 00  returns 0x00 (0000ms, 0209ms total)
T294C 006:424 JLINK_ReadMem (0x4002141C, 0x0008 Bytes, ...) -- CPU is running -- CPU_ReadMem(8 bytes @ 0x4002141C) - Data: 00 00 00 00 00 00 00 00  returns 0x00 (0000ms, 0209ms total)
T294C 006:424 JLINK_ReadMem (0x40021424, 0x0004 Bytes, ...) -- CPU is running -- CPU_ReadMem(4 bytes @ 0x40021424) - Data: 00 00 00 00  returns 0x00 (0001ms, 0210ms total)
T33E4 006:431 JLINK_IsHalted()  returns FALSE (0000ms, 0210ms total)
T33E4 006:532 JLINK_IsHalted()  returns FALSE (0000ms, 0210ms total)
T33E4 006:633 JLINK_IsHalted()  returns FALSE (0000ms, 0210ms total)
T33E4 006:734 JLINK_IsHalted()  returns FALSE (0000ms, 0210ms total)
T33E4 006:835 JLINK_IsHalted()  returns FALSE (0000ms, 0210ms total)
T33E4 006:936 JLINK_ReadMemU32(0xE0001004, 0x0001 Items, ...) -- CPU is running - Data: 78 4A 0B 06  returns 0x01 (0000ms, 0210ms total)
T294C 006:942 JLINK_ReadMem (0x40021400, 0x0014 Bytes, ...) -- CPU is running -- CPU_ReadMem(20 bytes @ 0x40021400) - Data: 00 00 14 00 00 00 00 00 00 00 00 00 00 00 00 00 ...  returns 0x00 (0001ms, 0211ms total)
T294C 006:943 JLINK_ReadMem (0x40021414, 0x0004 Bytes, ...) -- CPU is running -- CPU_ReadMem(4 bytes @ 0x40021414) - Data: 00 02 00 00  returns 0x00 (0000ms, 0211ms total)
T294C 006:943 JLINK_ReadMem (0x4002141C, 0x0008 Bytes, ...) -- CPU is running -- CPU_ReadMem(8 bytes @ 0x4002141C) - Data: 00 00 00 00 00 00 00 00  returns 0x00 (0000ms, 0211ms total)
T294C 006:943 JLINK_ReadMem (0x40021424, 0x0004 Bytes, ...) -- CPU is running -- CPU_ReadMem(4 bytes @ 0x40021424) - Data: 00 00 00 00  returns 0x00 (0001ms, 0212ms total)
T33E4 006:950 JLINK_IsHalted()  returns FALSE (0001ms, 0213ms total)
T33E4 007:051 JLINK_IsHalted()  returns FALSE (0000ms, 0212ms total)
T33E4 007:152 JLINK_IsHalted()  returns FALSE (0000ms, 0212ms total)
T33E4 007:253 JLINK_IsHalted()  returns FALSE (0000ms, 0212ms total)
T33E4 007:353 JLINK_IsHalted()  returns FALSE (0000ms, 0212ms total)
T33E4 007:454 JLINK_ReadMemU32(0xE0001004, 0x0001 Items, ...) -- CPU is running - Data: 78 4A 0B 06  returns 0x01 (0000ms, 0212ms total)
T294C 007:456 JLINK_ReadMem (0x40021400, 0x0014 Bytes, ...) -- CPU is running -- CPU_ReadMem(20 bytes @ 0x40021400) - Data: 00 00 14 00 00 00 00 00 00 00 00 00 00 00 00 00 ...  returns 0x00 (0000ms, 0212ms total)
T294C 007:456 JLINK_ReadMem (0x40021414, 0x0004 Bytes, ...) -- CPU is running -- CPU_ReadMem(4 bytes @ 0x40021414) - Data: 00 04 00 00  returns 0x00 (0000ms, 0212ms total)
T294C 007:456 JLINK_ReadMem (0x4002141C, 0x0008 Bytes, ...) -- CPU is running -- CPU_ReadMem(8 bytes @ 0x4002141C) - Data: 00 00 00 00 00 00 00 00  returns 0x00 (0001ms, 0213ms total)
T294C 007:457 JLINK_ReadMem (0x40021424, 0x0004 Bytes, ...) -- CPU is running -- CPU_ReadMem(4 bytes @ 0x40021424) - Data: 00 00 00 00  returns 0x00 (0000ms, 0213ms total)
T33E4 007:463 JLINK_IsHalted()  returns FALSE (0000ms, 0213ms total)
T33E4 007:564 JLINK_IsHalted()  returns FALSE (0000ms, 0213ms total)
T33E4 007:665 JLINK_IsHalted()  returns FALSE (0000ms, 0213ms total)
T33E4 007:766 JLINK_IsHalted()  returns FALSE (0000ms, 0213ms total)
T33E4 007:867 JLINK_IsHalted()  returns FALSE (0000ms, 0213ms total)
T33E4 007:967 JLINK_ReadMemU32(0xE0001004, 0x0001 Items, ...) -- CPU is running - Data: 78 4A 0B 06  returns 0x01 (0000ms, 0213ms total)
T294C 007:970 JLINK_ReadMem (0x40021400, 0x0014 Bytes, ...) -- CPU is running -- CPU_ReadMem(20 bytes @ 0x40021400) - Data: 00 00 14 00 00 00 00 00 00 00 00 00 00 00 00 00 ...  returns 0x00 (0000ms, 0213ms total)
T294C 007:970 JLINK_ReadMem (0x40021414, 0x0004 Bytes, ...) -- CPU is running -- CPU_ReadMem(4 bytes @ 0x40021414) - Data: 00 02 00 00  returns 0x00 (0002ms, 0215ms total)
T294C 007:972 JLINK_ReadMem (0x4002141C, 0x0008 Bytes, ...) -- CPU is running -- CPU_ReadMem(8 bytes @ 0x4002141C) - Data: 00 00 00 00 00 00 00 00  returns 0x00 (0000ms, 0215ms total)
T294C 007:972 JLINK_ReadMem (0x40021424, 0x0004 Bytes, ...) -- CPU is running -- CPU_ReadMem(4 bytes @ 0x40021424) - Data: 00 00 00 00  returns 0x00 (0000ms, 0215ms total)
T33E4 007:978 JLINK_IsHalted()  returns FALSE (0000ms, 0215ms total)
T294C 008:042 JLINK_SetBPEx(Addr = 0x08001200, Type = 0xFFFFFFF2) -- CPU is running -- CPU is running -- CPU_WriteMem(4 bytes @ 0xE0002000) -- CPU is running -- CPU_WriteMem(4 bytes @ 0xE0002008)  returns 0x00000002 (0001ms, 0216ms total)
T33E4 008:079 JLINK_IsHalted()  returns FALSE (0000ms, 0216ms total)
T33E4 008:180 JLINK_IsHalted()  returns FALSE (0000ms, 0216ms total)
T33E4 008:281 JLINK_IsHalted()  returns FALSE (0000ms, 0216ms total)
T33E4 008:381 JLINK_IsHalted()  returns FALSE (0000ms, 0216ms total)
T33E4 008:481 JLINK_ReadMemU32(0xE0001004, 0x0001 Items, ...) -- CPU is running - Data: 78 4A 0B 06  returns 0x01 (0000ms, 0216ms total)
T294C 008:486 JLINK_ReadMem (0x40021400, 0x0014 Bytes, ...) -- CPU is running -- CPU_ReadMem(20 bytes @ 0x40021400) - Data: 00 00 14 00 00 00 00 00 00 00 00 00 00 00 00 00 ...  returns 0x00 (0000ms, 0216ms total)
T294C 008:486 JLINK_ReadMem (0x40021414, 0x0004 Bytes, ...) -- CPU is running -- CPU_ReadMem(4 bytes @ 0x40021414) - Data: 00 04 00 00  returns 0x00 (0001ms, 0217ms total)
T294C 008:487 JLINK_ReadMem (0x4002141C, 0x0008 Bytes, ...) -- CPU is running -- CPU_ReadMem(8 bytes @ 0x4002141C) - Data: 00 00 00 00 00 00 00 00  returns 0x00 (0000ms, 0217ms total)
T294C 008:487 JLINK_ReadMem (0x40021424, 0x0004 Bytes, ...) -- CPU is running -- CPU_ReadMem(4 bytes @ 0x40021424) - Data: 00 00 00 00  returns 0x00 (0000ms, 0217ms total)
T33E4 008:492 JLINK_IsHalted()  returns FALSE (0002ms, 0219ms total)
T33E4 008:595 JLINK_IsHalted()  returns FALSE (0000ms, 0217ms total)
T33E4 008:696 JLINK_IsHalted()  returns FALSE (0001ms, 0218ms total)
T33E4 008:797 JLINK_IsHalted()  returns FALSE (0000ms, 0217ms total)
T33E4 008:898 JLINK_IsHalted()  returns FALSE (0000ms, 0217ms total)
T33E4 008:998 JLINK_ReadMemU32(0xE0001004, 0x0001 Items, ...) -- CPU is running - Data: 78 4A 0B 06  returns 0x01 (0000ms, 0217ms total)
T294C 009:001 JLINK_ReadMem (0x40021400, 0x0014 Bytes, ...) -- CPU is running -- CPU_ReadMem(20 bytes @ 0x40021400) - Data: 00 00 14 00 00 00 00 00 00 00 00 00 00 00 00 00 ...  returns 0x00 (0000ms, 0217ms total)
T294C 009:001 JLINK_ReadMem (0x40021414, 0x0004 Bytes, ...) -- CPU is running -- CPU_ReadMem(4 bytes @ 0x40021414) - Data: 00 02 00 00  returns 0x00 (0001ms, 0218ms total)
T294C 009:002 JLINK_ReadMem (0x4002141C, 0x0008 Bytes, ...) -- CPU is running -- CPU_ReadMem(8 bytes @ 0x4002141C) - Data: 00 00 00 00 00 00 00 00  returns 0x00 (0000ms, 0218ms total)
T294C 009:002 JLINK_ReadMem (0x40021424, 0x0004 Bytes, ...) -- CPU is running -- CPU_ReadMem(4 bytes @ 0x40021424) - Data: 00 00 00 00  returns 0x00 (0000ms, 0218ms total)
T33E4 009:009 JLINK_IsHalted()  returns FALSE (0000ms, 0218ms total)
T33E4 009:110 JLINK_IsHalted()  returns FALSE (0000ms, 0218ms total)
T33E4 009:211 JLINK_IsHalted()  returns FALSE (0000ms, 0218ms total)
T33E4 009:312 JLINK_IsHalted()  returns FALSE (0000ms, 0218ms total)
T33E4 009:413 JLINK_IsHalted()  returns FALSE (0000ms, 0218ms total)
T33E4 009:514 JLINK_ReadMemU32(0xE0001004, 0x0001 Items, ...) -- CPU is running - Data: 78 4A 0B 06  returns 0x01 (0000ms, 0218ms total)
T294C 009:515 JLINK_ReadMem (0x40021400, 0x0014 Bytes, ...) -- CPU is running -- CPU_ReadMem(20 bytes @ 0x40021400) - Data: 00 00 14 00 00 00 00 00 00 00 00 00 00 00 00 00 ...  returns 0x00 (0001ms, 0219ms total)
T294C 009:516 JLINK_ReadMem (0x40021414, 0x0004 Bytes, ...) -- CPU is running -- CPU_ReadMem(4 bytes @ 0x40021414) - Data: 00 04 00 00  returns 0x00 (0000ms, 0219ms total)
T294C 009:516 JLINK_ReadMem (0x4002141C, 0x0008 Bytes, ...) -- CPU is running -- CPU_ReadMem(8 bytes @ 0x4002141C) - Data: 00 00 00 00 00 00 00 00  returns 0x00 (0000ms, 0219ms total)
T294C 009:517 JLINK_ReadMem (0x40021424, 0x0004 Bytes, ...) -- CPU is running -- CPU_ReadMem(4 bytes @ 0x40021424) - Data: 00 00 00 00  returns 0x00 (0000ms, 0220ms total)
T33E4 009:523 JLINK_IsHalted()  returns FALSE (0000ms, 0220ms total)
T33E4 009:624 JLINK_IsHalted()  returns FALSE (0001ms, 0221ms total)
T33E4 009:726 JLINK_IsHalted()  returns FALSE (0000ms, 0220ms total)
T33E4 009:826 JLINK_IsHalted()  returns FALSE (0001ms, 0221ms total)
T33E4 009:927 JLINK_IsHalted()  returns FALSE (0000ms, 0220ms total)
T33E4 010:028 JLINK_ReadMemU32(0xE0001004, 0x0001 Items, ...) -- CPU is running - Data: 78 4A 0B 06  returns 0x01 (0000ms, 0220ms total)
T294C 010:029 JLINK_ReadMem (0x40021400, 0x0014 Bytes, ...) -- CPU is running -- CPU_ReadMem(20 bytes @ 0x40021400) - Data: 00 00 14 00 00 00 00 00 00 00 00 00 00 00 00 00 ...  returns 0x00 (0000ms, 0220ms total)
T294C 010:029 JLINK_ReadMem (0x40021414, 0x0004 Bytes, ...) -- CPU is running -- CPU_ReadMem(4 bytes @ 0x40021414) - Data: 00 02 00 00  returns 0x00 (0001ms, 0221ms total)
T294C 010:030 JLINK_ReadMem (0x4002141C, 0x0008 Bytes, ...) -- CPU is running -- CPU_ReadMem(8 bytes @ 0x4002141C) - Data: 00 00 00 00 00 00 00 00  returns 0x00 (0000ms, 0221ms total)
T294C 010:030 JLINK_ReadMem (0x40021424, 0x0004 Bytes, ...) -- CPU is running -- CPU_ReadMem(4 bytes @ 0x40021424) - Data: 00 00 00 00  returns 0x00 (0000ms, 0221ms total)
T33E4 010:037 JLINK_IsHalted()  returns FALSE (0000ms, 0222ms total)
T33E4 010:138 JLINK_IsHalted()  returns FALSE (0000ms, 0222ms total)
T33E4 010:239 JLINK_IsHalted()  returns FALSE (0000ms, 0222ms total)
T33E4 010:340 JLINK_IsHalted()  returns FALSE (0000ms, 0222ms total)
T294C 010:340 JLINK_ClrBPEx(BPHandle = 0x00000002) -- CPU is running -- CPU is running -- CPU_WriteMem(4 bytes @ 0xE0002008) -- CPU is running -- CPU_WriteMem(4 bytes @ 0xE000200C) -- CPU is running -- CPU_WriteMem(4 bytes @ 0xE0002010) -- CPU is running -- CPU_WriteMem(4 bytes @ 0xE0002014) -- CPU is running -- CPU_WriteMem(4 bytes @ 0xE0002018) -- CPU is running -- CPU_WriteMem(4 bytes @ 0xE000201C)  returns 0x00 (0002ms, 0224ms total)
T33E4 010:441 JLINK_IsHalted()  returns FALSE (0000ms, 0224ms total)
T33E4 010:541 JLINK_IsHalted()  returns FALSE (0000ms, 0224ms total)
T33E4 010:642 JLINK_ReadMemU32(0xE0001004, 0x0001 Items, ...) -- CPU is running - Data: 78 4A 0B 06  returns 0x01 (0000ms, 0224ms total)
T294C 010:644 JLINK_ReadMem (0x40021400, 0x0014 Bytes, ...) -- CPU is running -- CPU_ReadMem(20 bytes @ 0x40021400) - Data: 00 00 14 00 00 00 00 00 00 00 00 00 00 00 00 00 ...  returns 0x00 (0000ms, 0224ms total)
T294C 010:644 JLINK_ReadMem (0x40021414, 0x0004 Bytes, ...) -- CPU is running -- CPU_ReadMem(4 bytes @ 0x40021414) - Data: 00 04 00 00  returns 0x00 (0001ms, 0225ms total)
T294C 010:645 JLINK_ReadMem (0x4002141C, 0x0008 Bytes, ...) -- CPU is running -- CPU_ReadMem(8 bytes @ 0x4002141C) - Data: 00 00 00 00 00 00 00 00  returns 0x00 (0000ms, 0225ms total)
T294C 010:645 JLINK_ReadMem (0x40021424, 0x0004 Bytes, ...) -- CPU is running -- CPU_ReadMem(4 bytes @ 0x40021424) - Data: 00 00 00 00  returns 0x00 (0000ms, 0225ms total)
T33E4 010:651 JLINK_IsHalted()  returns FALSE (0000ms, 0225ms total)
T33E4 010:753 JLINK_IsHalted()  returns FALSE (0000ms, 0225ms total)
T33E4 010:854 JLINK_IsHalted()  returns FALSE (0000ms, 0225ms total)
T33E4 010:955 JLINK_IsHalted()  returns FALSE (0000ms, 0225ms total)
T33E4 011:055 JLINK_IsHalted()  returns FALSE (0000ms, 0225ms total)
T33E4 011:156 JLINK_ReadMemU32(0xE0001004, 0x0001 Items, ...) -- CPU is running - Data: 78 4A 0B 06  returns 0x01 (0000ms, 0225ms total)
T294C 011:158 JLINK_ReadMem (0x40021400, 0x0014 Bytes, ...) -- CPU is running -- CPU_ReadMem(20 bytes @ 0x40021400) - Data: 00 00 14 00 00 00 00 00 00 00 00 00 00 00 00 00 ...  returns 0x00 (0000ms, 0225ms total)
T294C 011:158 JLINK_ReadMem (0x40021414, 0x0004 Bytes, ...) -- CPU is running -- CPU_ReadMem(4 bytes @ 0x40021414) - Data: 00 02 00 00  returns 0x00 (0000ms, 0225ms total)
T294C 011:158 JLINK_ReadMem (0x4002141C, 0x0008 Bytes, ...) -- CPU is running -- CPU_ReadMem(8 bytes @ 0x4002141C) - Data: 00 00 00 00 00 00 00 00  returns 0x00 (0001ms, 0226ms total)
T294C 011:159 JLINK_ReadMem (0x40021424, 0x0004 Bytes, ...) -- CPU is running -- CPU_ReadMem(4 bytes @ 0x40021424) - Data: 00 00 00 00  returns 0x00 (0000ms, 0226ms total)
T33E4 011:166 JLINK_IsHalted()  returns FALSE (0000ms, 0226ms total)
T33E4 011:267 JLINK_IsHalted()  returns FALSE (0000ms, 0226ms total)
T33E4 011:367 JLINK_IsHalted()  returns FALSE (0000ms, 0226ms total)
T33E4 011:468 JLINK_IsHalted()  returns FALSE (0000ms, 0226ms total)
T33E4 011:568 JLINK_IsHalted()  returns FALSE (0001ms, 0227ms total)
T33E4 011:669 JLINK_ReadMemU32(0xE0001004, 0x0001 Items, ...) -- CPU is running - Data: 78 4A 0B 06  returns 0x01 (0000ms, 0226ms total)
T294C 011:670 JLINK_ReadMem (0x40021400, 0x0014 Bytes, ...) -- CPU is running -- CPU_ReadMem(20 bytes @ 0x40021400) - Data: 00 00 14 00 00 00 00 00 00 00 00 00 00 00 00 00 ...  returns 0x00 (0001ms, 0227ms total)
T294C 011:671 JLINK_ReadMem (0x40021414, 0x0004 Bytes, ...) -- CPU is running -- CPU_ReadMem(4 bytes @ 0x40021414) - Data: 00 04 00 00  returns 0x00 (0000ms, 0227ms total)
T294C 011:671 JLINK_ReadMem (0x4002141C, 0x0008 Bytes, ...) -- CPU is running -- CPU_ReadMem(8 bytes @ 0x4002141C) - Data: 00 00 00 00 00 00 00 00  returns 0x00 (0000ms, 0227ms total)
T294C 011:671 JLINK_ReadMem (0x40021424, 0x0004 Bytes, ...) -- CPU is running -- CPU_ReadMem(4 bytes @ 0x40021424) - Data: 00 00 00 00  returns 0x00 (0001ms, 0228ms total)
T33E4 011:677 JLINK_IsHalted()  returns FALSE (0001ms, 0229ms total)
T33E4 011:779 JLINK_IsHalted()  returns FALSE (0000ms, 0228ms total)
T294C 011:806 JLINK_SetBPEx(Addr = 0x080011F8, Type = 0xFFFFFFF2) -- CPU is running -- CPU is running -- CPU_WriteMem(4 bytes @ 0xE0002000) -- CPU is running -- CPU_WriteMem(4 bytes @ 0xE0002008)  returns 0x00000003 (0001ms, 0229ms total)
T33E4 011:880 JLINK_IsHalted()  returns TRUE (0002ms, 0231ms total)
T33E4 011:882 JLINK_Halt()  returns 0x00 (0000ms, 0229ms total)
T33E4 011:882 JLINK_IsHalted()  returns TRUE (0000ms, 0229ms total)
T33E4 011:882 JLINK_IsHalted()  returns TRUE (0000ms, 0229ms total)
T33E4 011:882 JLINK_IsHalted()  returns TRUE (0000ms, 0229ms total)
T33E4 011:882 JLINK_ReadReg(R15 (PC))  returns 0x080011F8 (0000ms, 0229ms total)
T33E4 011:882 JLINK_ReadReg(XPSR)  returns 0x61000000 (0000ms, 0229ms total)
T33E4 011:882 JLINK_ClrBPEx(BPHandle = 0x00000003)  returns 0x00 (0000ms, 0229ms total)
T33E4 011:882 JLINK_ReadMemU32(0xE000ED30, 0x0001 Items, ...) -- CPU_ReadMem(4 bytes @ 0xE000ED30) - Data: 02 00 00 00  returns 0x01 (0000ms, 0229ms total)
T33E4 011:882 JLINK_ReadMemU32(0xE0001028, 0x0001 Items, ...) -- CPU_ReadMem(4 bytes @ 0xE0001028) - Data: 00 00 00 00  returns 0x01 (0000ms, 0229ms total)
T33E4 011:882 JLINK_ReadMemU32(0xE0001038, 0x0001 Items, ...) -- CPU_ReadMem(4 bytes @ 0xE0001038) - Data: 00 02 00 00  returns 0x01 (0000ms, 0229ms total)
T33E4 011:882 JLINK_ReadMemU32(0xE0001048, 0x0001 Items, ...) -- CPU_ReadMem(4 bytes @ 0xE0001048) - Data: 00 00 00 00  returns 0x01 (0000ms, 0229ms total)
T33E4 011:882 JLINK_ReadMemU32(0xE0001058, 0x0001 Items, ...) -- CPU_ReadMem(4 bytes @ 0xE0001058) - Data: 00 00 00 00  returns 0x01 (0000ms, 0229ms total)
T33E4 011:883 JLINK_ReadReg(R0)  returns 0x00000000 (0000ms, 0229ms total)
T33E4 011:883 JLINK_ReadReg(R1)  returns 0xE000ED04 (0000ms, 0229ms total)
T33E4 011:883 JLINK_ReadReg(R2)  returns 0x20000588 (0000ms, 0229ms total)
T33E4 011:883 JLINK_ReadReg(R3)  returns 0x2000123C (0000ms, 0229ms total)
T33E4 011:883 JLINK_ReadReg(R4)  returns 0xA5A5A5A5 (0000ms, 0229ms total)
T33E4 011:883 JLINK_ReadReg(R5)  returns 0xA5A5A5A5 (0000ms, 0229ms total)
T33E4 011:883 JLINK_ReadReg(R6)  returns 0xA5A5A5A5 (0000ms, 0229ms total)
T33E4 011:883 JLINK_ReadReg(R7)  returns 0xA5A5A5A5 (0000ms, 0229ms total)
T33E4 011:883 JLINK_ReadReg(R8)  returns 0xA5A5A5A5 (0000ms, 0229ms total)
T33E4 011:883 JLINK_ReadReg(R9)  returns 0xA5A5A5A5 (0000ms, 0229ms total)
T33E4 011:883 JLINK_ReadReg(R10)  returns 0xA5A5A5A5 (0000ms, 0229ms total)
T33E4 011:883 JLINK_ReadReg(R11)  returns 0xA5A5A5A5 (0000ms, 0229ms total)
T33E4 011:883 JLINK_ReadReg(R12)  returns 0xA5A5A5A5 (0000ms, 0229ms total)
T33E4 011:883 JLINK_ReadReg(R13 (SP))  returns 0x20000FB8 (0000ms, 0229ms total)
T33E4 011:883 JLINK_ReadReg(R14)  returns 0x08002AF9 (0000ms, 0229ms total)
T33E4 011:883 JLINK_ReadReg(R15 (PC))  returns 0x080011F8 (0000ms, 0229ms total)
T33E4 011:883 JLINK_ReadReg(XPSR)  returns 0x61000000 (0000ms, 0229ms total)
T33E4 011:883 JLINK_ReadReg(MSP)  returns 0x20004FF8 (0000ms, 0229ms total)
T33E4 011:883 JLINK_ReadReg(PSP)  returns 0x20000FB8 (0000ms, 0229ms total)
T33E4 011:883 JLINK_ReadReg(CFBP)  returns 0x02000000 (0000ms, 0229ms total)
T33E4 011:883 JLINK_ReadReg(FPSCR)  returns 0x03000000 (0004ms, 0233ms total)
T33E4 011:887 JLINK_ReadReg(FPS0)  returns 0x00000000 (0000ms, 0233ms total)
T33E4 011:887 JLINK_ReadReg(FPS1)  returns 0x00000000 (0000ms, 0233ms total)
T33E4 011:887 JLINK_ReadReg(FPS2)  returns 0x00000000 (0000ms, 0233ms total)
T33E4 011:887 JLINK_ReadReg(FPS3)  returns 0x00000000 (0000ms, 0233ms total)
T33E4 011:887 JLINK_ReadReg(FPS4)  returns 0x00000000 (0000ms, 0233ms total)
T33E4 011:887 JLINK_ReadReg(FPS5)  returns 0x00000000 (0000ms, 0233ms total)
T33E4 011:887 JLINK_ReadReg(FPS6)  returns 0x00000000 (0000ms, 0233ms total)
T33E4 011:887 JLINK_ReadReg(FPS7)  returns 0x00000000 (0000ms, 0233ms total)
T33E4 011:887 JLINK_ReadReg(FPS8)  returns 0x00000000 (0000ms, 0233ms total)
T33E4 011:887 JLINK_ReadReg(FPS9)  returns 0x00000000 (0000ms, 0233ms total)
T33E4 011:887 JLINK_ReadReg(FPS10)  returns 0x00000000 (0000ms, 0233ms total)
T33E4 011:887 JLINK_ReadReg(FPS11)  returns 0x00000000 (0000ms, 0233ms total)
T33E4 011:887 JLINK_ReadReg(FPS12)  returns 0x00000000 (0000ms, 0233ms total)
T33E4 011:887 JLINK_ReadReg(FPS13)  returns 0x00000000 (0000ms, 0233ms total)
T33E4 011:887 JLINK_ReadReg(FPS14)  returns 0x00000000 (0000ms, 0233ms total)
T33E4 011:887 JLINK_ReadReg(FPS15)  returns 0x00000000 (0000ms, 0233ms total)
T33E4 011:887 JLINK_ReadReg(FPS16)  returns 0x00000000 (0000ms, 0233ms total)
T33E4 011:887 JLINK_ReadReg(FPS17)  returns 0x00000000 (0000ms, 0233ms total)
T33E4 011:887 JLINK_ReadReg(FPS18)  returns 0x00000000 (0000ms, 0233ms total)
T33E4 011:887 JLINK_ReadReg(FPS19)  returns 0x00000000 (0000ms, 0233ms total)
T33E4 011:887 JLINK_ReadReg(FPS20)  returns 0x00000000 (0000ms, 0233ms total)
T33E4 011:887 JLINK_ReadReg(FPS21)  returns 0x00000000 (0000ms, 0233ms total)
T33E4 011:887 JLINK_ReadReg(FPS22)  returns 0x00000000 (0000ms, 0233ms total)
T33E4 011:887 JLINK_ReadReg(FPS23)  returns 0x00000000 (0000ms, 0233ms total)
T33E4 011:887 JLINK_ReadReg(FPS24)  returns 0x00000000 (0000ms, 0233ms total)
T33E4 011:887 JLINK_ReadReg(FPS25)  returns 0x00000000 (0000ms, 0233ms total)
T33E4 011:887 JLINK_ReadReg(FPS26)  returns 0x00000000 (0000ms, 0233ms total)
T33E4 011:887 JLINK_ReadReg(FPS27)  returns 0x00000000 (0000ms, 0233ms total)
T33E4 011:887 JLINK_ReadReg(FPS28)  returns 0x00000000 (0000ms, 0233ms total)
T33E4 011:887 JLINK_ReadReg(FPS29)  returns 0x00000000 (0000ms, 0233ms total)
T33E4 011:887 JLINK_ReadReg(FPS30)  returns 0x00000000 (0000ms, 0233ms total)
T33E4 011:887 JLINK_ReadReg(FPS31)  returns 0x00000000 (0000ms, 0233ms total)
T294C 011:892 JLINK_ReadMem (0x00000000, 0x0004 Bytes, ...) -- CPU_ReadMem(4 bytes @ 0x00000004) -- CPU_ReadMem(64 bytes @ 0x08000000) -- Updating C cache (64 bytes @ 0x08000000) -- Read from C cache (4 bytes @ 0x08000000) - Data: 18 50 00 20  returns 0x00 (0000ms, 0233ms total)
T294C 011:895 JLINK_ReadMem (0x40021400, 0x0014 Bytes, ...) -- CPU_ReadMem(20 bytes @ 0x40021400) - Data: 00 00 14 00 00 00 00 00 00 00 00 00 00 00 00 00 ...  returns 0x00 (0001ms, 0234ms total)
T294C 011:896 JLINK_ReadMem (0x40021414, 0x0004 Bytes, ...) -- CPU_ReadMem(4 bytes @ 0x40021414) - Data: 00 02 00 00  returns 0x00 (0000ms, 0234ms total)
T294C 011:896 JLINK_ReadMem (0x4002141C, 0x0008 Bytes, ...) -- CPU_ReadMem(8 bytes @ 0x4002141C) - Data: 00 00 00 00 00 00 00 00  returns 0x00 (0000ms, 0234ms total)
T294C 011:896 JLINK_ReadMem (0x40021424, 0x0004 Bytes, ...) -- CPU_ReadMem(4 bytes @ 0x40021424) - Data: 00 00 00 00  returns 0x00 (0001ms, 0235ms total)
T294C 011:903 JLINK_ReadMem (0x080011F6, 0x0002 Bytes, ...) -- CPU_ReadMem(64 bytes @ 0x080011C0) -- Updating C cache (64 bytes @ 0x080011C0) -- Read from C cache (2 bytes @ 0x080011F6) - Data: FE E7  returns 0x00 (0001ms, 0236ms total)
T294C 011:904 JLINK_ReadMem (0x080011F8, 0x003C Bytes, ...) -- CPU_ReadMem(64 bytes @ 0x08001200) -- Updating C cache (64 bytes @ 0x08001200) -- Read from C cache (60 bytes @ 0x080011F8) - Data: 01 20 00 F0 05 F9 FB E7 08 4C 4F F4 00 75 4F F4 ...  returns 0x00 (0000ms, 0236ms total)
T33E4 013:959 JLINK_Go() -- CPU_ReadMem(4 bytes @ 0xE0001000) -- CPU_WriteMem(4 bytes @ 0xE0002008) (0002ms, 0238ms total)
T33E4 014:062 JLINK_IsHalted()  returns FALSE (0000ms, 0238ms total)
T33E4 014:164 JLINK_IsHalted()  returns FALSE (0000ms, 0238ms total)
T33E4 014:265 JLINK_IsHalted()  returns FALSE (0000ms, 0238ms total)
T33E4 014:366 JLINK_IsHalted()  returns FALSE (0000ms, 0238ms total)
T33E4 014:467 JLINK_ReadMemU32(0xE0001004, 0x0001 Items, ...) -- CPU is running -- CPU_ReadMem(4 bytes @ 0xE0001004) - Data: 1E B5 5C 4B  returns 0x01 (0000ms, 0238ms total)
T294C 014:470 JLINK_ReadMem (0x40021400, 0x0014 Bytes, ...) -- CPU is running -- CPU_ReadMem(20 bytes @ 0x40021400) - Data: 00 00 14 00 00 00 00 00 00 00 00 00 00 00 00 00 ...  returns 0x00 (0001ms, 0239ms total)
T294C 014:471 JLINK_ReadMem (0x40021414, 0x0004 Bytes, ...) -- CPU is running -- CPU_ReadMem(4 bytes @ 0x40021414) - Data: 00 04 00 00  returns 0x00 (0000ms, 0239ms total)
T294C 014:471 JLINK_ReadMem (0x4002141C, 0x0008 Bytes, ...) -- CPU is running -- CPU_ReadMem(8 bytes @ 0x4002141C) - Data: 00 00 00 00 00 00 00 00  returns 0x00 (0000ms, 0239ms total)
T294C 014:471 JLINK_ReadMem (0x40021424, 0x0004 Bytes, ...) -- CPU is running -- CPU_ReadMem(4 bytes @ 0x40021424) - Data: 00 00 00 00  returns 0x00 (0000ms, 0239ms total)
T33E4 014:478 JLINK_IsHalted()  returns FALSE (0000ms, 0239ms total)
T33E4 014:578 JLINK_IsHalted()  returns FALSE (0000ms, 0239ms total)
T33E4 014:679 JLINK_IsHalted()  returns FALSE (0000ms, 0239ms total)
T33E4 014:780 JLINK_IsHalted()  returns FALSE (0000ms, 0239ms total)
T33E4 014:880 JLINK_IsHalted()  returns FALSE (0000ms, 0239ms total)
T33E4 014:981 JLINK_ReadMemU32(0xE0001004, 0x0001 Items, ...) -- CPU is running - Data: 1E B5 5C 4B  returns 0x01 (0000ms, 0239ms total)
T294C 014:984 JLINK_ReadMem (0x40021400, 0x0014 Bytes, ...) -- CPU is running -- CPU_ReadMem(20 bytes @ 0x40021400) - Data: 00 00 14 00 00 00 00 00 00 00 00 00 00 00 00 00 ...  returns 0x00 (0000ms, 0239ms total)
T294C 014:984 JLINK_ReadMem (0x40021414, 0x0004 Bytes, ...) -- CPU is running -- CPU_ReadMem(4 bytes @ 0x40021414) - Data: 00 02 00 00  returns 0x00 (0000ms, 0239ms total)
T294C 014:984 JLINK_ReadMem (0x4002141C, 0x0008 Bytes, ...) -- CPU is running -- CPU_ReadMem(8 bytes @ 0x4002141C) - Data: 00 00 00 00 00 00 00 00  returns 0x00 (0001ms, 0240ms total)
T294C 014:985 JLINK_ReadMem (0x40021424, 0x0004 Bytes, ...) -- CPU is running -- CPU_ReadMem(4 bytes @ 0x40021424) - Data: 00 00 00 00  returns 0x00 (0000ms, 0240ms total)
T33E4 014:991 JLINK_IsHalted()  returns FALSE (0001ms, 0241ms total)
T33E4 015:092 JLINK_IsHalted()  returns FALSE (0000ms, 0240ms total)
T33E4 015:192 JLINK_IsHalted()  returns FALSE (0000ms, 0240ms total)
T33E4 015:293 JLINK_IsHalted()  returns FALSE (0000ms, 0240ms total)
T33E4 015:394 JLINK_IsHalted()  returns FALSE (0001ms, 0241ms total)
T33E4 015:495 JLINK_IsHalted()  returns FALSE (0000ms, 0240ms total)
T33E4 015:596 JLINK_ReadMemU32(0xE0001004, 0x0001 Items, ...) -- CPU is running - Data: 1E B5 5C 4B  returns 0x01 (0000ms, 0240ms total)
T294C 015:597 JLINK_ReadMem (0x40021400, 0x0014 Bytes, ...) -- CPU is running -- CPU_ReadMem(20 bytes @ 0x40021400) - Data: 00 00 14 00 00 00 00 00 00 00 00 00 00 00 00 00 ...  returns 0x00 (0001ms, 0241ms total)
T294C 015:598 JLINK_ReadMem (0x40021414, 0x0004 Bytes, ...) -- CPU is running -- CPU_ReadMem(4 bytes @ 0x40021414) - Data: 00 04 00 00  returns 0x00 (0000ms, 0241ms total)
T294C 015:598 JLINK_ReadMem (0x4002141C, 0x0008 Bytes, ...) -- CPU is running -- CPU_ReadMem(8 bytes @ 0x4002141C) - Data: 00 00 00 00 00 00 00 00  returns 0x00 (0000ms, 0241ms total)
T294C 015:598 JLINK_ReadMem (0x40021424, 0x0004 Bytes, ...) -- CPU is running -- CPU_ReadMem(4 bytes @ 0x40021424) - Data: 00 00 00 00  returns 0x00 (0000ms, 0241ms total)
T33E4 015:608 JLINK_IsHalted()  returns FALSE (0001ms, 0242ms total)
T33E4 015:709 JLINK_IsHalted()  returns FALSE (0000ms, 0241ms total)
T33E4 015:810 JLINK_IsHalted()  returns FALSE (0000ms, 0241ms total)
T33E4 015:910 JLINK_IsHalted()  returns FALSE (0000ms, 0241ms total)
T33E4 016:011 JLINK_IsHalted()  returns FALSE (0000ms, 0241ms total)
T33E4 016:112 JLINK_ReadMemU32(0xE0001004, 0x0001 Items, ...) -- CPU is running - Data: 1E B5 5C 4B  returns 0x01 (0000ms, 0241ms total)
T294C 016:114 JLINK_ReadMem (0x40021400, 0x0014 Bytes, ...) -- CPU is running -- CPU_ReadMem(20 bytes @ 0x40021400) - Data: 00 00 14 00 00 00 00 00 00 00 00 00 00 00 00 00 ...  returns 0x00 (0000ms, 0241ms total)
T294C 016:114 JLINK_ReadMem (0x40021414, 0x0004 Bytes, ...) -- CPU is running -- CPU_ReadMem(4 bytes @ 0x40021414) - Data: 00 02 00 00  returns 0x00 (0000ms, 0241ms total)
T294C 016:114 JLINK_ReadMem (0x4002141C, 0x0008 Bytes, ...) -- CPU is running -- CPU_ReadMem(8 bytes @ 0x4002141C) - Data: 00 00 00 00 00 00 00 00  returns 0x00 (0001ms, 0242ms total)
T294C 016:115 JLINK_ReadMem (0x40021424, 0x0004 Bytes, ...) -- CPU is running -- CPU_ReadMem(4 bytes @ 0x40021424) - Data: 00 00 00 00  returns 0x00 (0000ms, 0242ms total)
T33E4 016:121 JLINK_IsHalted()  returns FALSE (0000ms, 0242ms total)
T33E4 016:222 JLINK_IsHalted()  returns FALSE (0000ms, 0242ms total)
T33E4 016:322 JLINK_IsHalted()  returns FALSE (0000ms, 0242ms total)
T33E4 016:423 JLINK_IsHalted()  returns FALSE (0000ms, 0242ms total)
T33E4 016:524 JLINK_IsHalted()  returns FALSE (0000ms, 0242ms total)
T33E4 016:625 JLINK_ReadMemU32(0xE0001004, 0x0001 Items, ...) -- CPU is running - Data: 1E B5 5C 4B  returns 0x01 (0000ms, 0242ms total)
T294C 016:626 JLINK_ReadMem (0x40021400, 0x0014 Bytes, ...) -- CPU is running -- CPU_ReadMem(20 bytes @ 0x40021400) - Data: 00 00 14 00 00 00 00 00 00 00 00 00 00 00 00 00 ...  returns 0x00 (0000ms, 0242ms total)
T294C 016:627 JLINK_ReadMem (0x40021414, 0x0004 Bytes, ...) -- CPU is running -- CPU_ReadMem(4 bytes @ 0x40021414) - Data: 00 04 00 00  returns 0x00 (0000ms, 0243ms total)
T294C 016:627 JLINK_ReadMem (0x4002141C, 0x0008 Bytes, ...) -- CPU is running -- CPU_ReadMem(8 bytes @ 0x4002141C) - Data: 00 00 00 00 00 00 00 00  returns 0x00 (0001ms, 0244ms total)
T294C 016:628 JLINK_ReadMem (0x40021424, 0x0004 Bytes, ...) -- CPU is running -- CPU_ReadMem(4 bytes @ 0x40021424) - Data: 00 00 00 00  returns 0x00 (0000ms, 0244ms total)
T33E4 016:636 JLINK_IsHalted()  returns FALSE (0001ms, 0245ms total)
T33E4 016:737 JLINK_IsHalted()  returns FALSE (0000ms, 0244ms total)
T33E4 016:838 JLINK_IsHalted()  returns FALSE (0000ms, 0244ms total)
T33E4 016:939 JLINK_IsHalted()  returns FALSE (0000ms, 0244ms total)
T33E4 017:040 JLINK_IsHalted()  returns FALSE (0000ms, 0244ms total)
T33E4 017:140 JLINK_ReadMemU32(0xE0001004, 0x0001 Items, ...) -- CPU is running - Data: 1E B5 5C 4B  returns 0x01 (0000ms, 0244ms total)
T294C 017:142 JLINK_ReadMem (0x40021400, 0x0014 Bytes, ...) -- CPU is running -- CPU_ReadMem(20 bytes @ 0x40021400) - Data: 00 00 14 00 00 00 00 00 00 00 00 00 00 00 00 00 ...  returns 0x00 (0001ms, 0245ms total)
